T2AE4 000:010.687   SEGGER J-Link V9.58 Log File
T2AE4 000:011.557   DLL Compiled: Jul  9 2026 15:54:06
T2AE4 000:011.560   Logging started @ 2026-07-15 17:16
T2AE4 000:011.565   Process: D:\Keil5\UV4\UV4.exe
T2AE4 000:012.309 - 11.568ms 
T2AE4 000:012.578 JLINK_SetWarnOutHandler(...)
T2AE4 000:012.582 - 0.264ms 
T2AE4 000:012.589 JLINK_OpenEx(...)
T2AE4 000:018.638   Firmware: J-Link V9 compiled May  7 2021 16:26:12
T2AE4 000:019.488   Firmware: J-Link V9 compiled May  7 2021 16:26:12
T2AE4 000:019.994   Decompressing FW timestamp took 204 us
T2AE4 000:025.523   Hardware: V9.20
T2AE4 000:025.528   S/N: 20260715
T2AE4 000:025.532   OEM: SEGGER
T2AE4 000:025.536   Feature(s): GDB, RDI, FlashBP, FlashDL, JFlash
T2AE4 000:026.488   Bootloader: (FW returned invalid version)
T2AE4 000:027.104   TELNET listener socket opened on port 19021
T2AE4 000:027.504   WEBSRV WEBSRV_Init(): Starting webserver thread(s)
T2AE4 000:027.598   WEBSRV Webserver running on local port 19080
T2AE4 000:027.694   Looking for J-Link GUI Server exe at: D:\Keil5\ARM\Segger\JLinkGUIServer.exe
T2AE4 000:028.257   Looking for J-Link GUI Server exe at: C:\Program Files\SEGGER\JLink_V958\JLinkGUIServer.exe
T2AE4 000:028.788   Forking J-Link GUI Server: C:\Program Files\SEGGER\JLink_V958\JLinkGUIServer.exe
T2AE4 000:065.694   J-Link GUI Server info: "J-Link GUI server V9.58 "
T2AE4 000:070.631 - 57.697ms returns "O.K."
T2AE4 000:070.653 JLINK_GetEmuCaps()
T2AE4 000:070.659 - 0.004ms returns 0xB9FF7BBF
T2AE4 000:070.665 JLINK_TIF_GetAvailable(...)
T2AE4 000:070.846 - 0.182ms 
T2AE4 000:070.851 JLINK_SetErrorOutHandler(...)
T2AE4 000:070.854 - 0.002ms 
T2AE4 000:071.361 JLINK_ExecCommand("ProjectFile = "D:\my_code\my_code\diansai\MSPM0G3507_Diansai_Test\Keil\JLinkSettings.ini"", ...). 
T2AE4 000:230.924   Ref file found at: D:\Keil5\ARM\Segger\JLinkDevices.ref
T2AE4 000:230.993   REF file references invalid XML file: C:\Program Files\SEGGER\JLink_V958\JLinkDevices.xml
T2AE4 000:231.048 - 159.689ms returns 0x00
T2AE4 000:232.444 JLINK_ExecCommand("Device = MSPM0G3507", ...). 
T2AE4 000:238.977   Device "MSPM0G3507" selected.
T2AE4 000:239.222 - 6.777ms returns 0x00
T2AE4 000:239.379   ERROR: Unknown command
T2AE4 000:239.386 JLINK_GetHardwareVersion()
T2AE4 000:239.390 - 0.002ms returns 92000
T2AE4 000:239.394 JLINK_GetDLLVersion()
T2AE4 000:239.397 - 0.002ms returns 95800
T2AE4 000:239.403 JLINK_GetOEMString(...)
T2AE4 000:239.407 JLINK_GetFirmwareString(...)
T2AE4 000:239.410 - 0.002ms 
T2AE4 000:243.895 JLINK_GetDLLVersion()
T2AE4 000:243.902 - 0.007ms returns 95800
T2AE4 000:243.906 JLINK_GetCompileDateTime()
T2AE4 000:243.909 - 0.002ms 
T2AE4 000:245.896 JLINK_GetFirmwareString(...)
T2AE4 000:245.904 - 0.007ms 
T2AE4 000:247.368 JLINK_GetHardwareVersion()
T2AE4 000:247.374 - 0.006ms returns 92000
T2AE4 000:249.217 JLINK_GetSN()
T2AE4 000:249.224 - 0.007ms returns 20260715
T2AE4 000:254.029 JLINK_GetOEMString(...)
T2AE4 000:257.242 JLINK_TIF_Select(JLINKARM_TIF_SWD)
T2AE4 000:257.716 - 0.473ms returns 0x00
T2AE4 000:257.721 JLINK_HasError()
T2AE4 000:257.900 JLINK_SetSpeed(5000)
T2AE4 000:257.962 - 0.232ms 
T2AE4 000:257.967 JLINK_GetId()
T2AE4 000:260.692   InitTarget() start
T2AE4 000:260.701    J-Link Script File: Executing InitTarget()
T2AE4 000:263.504   DAP initialized successfully.
T2AE4 000:266.495   Setting up LPM debug bits
T2AE4 000:268.296   PWR_AP_DPREC0v: 0x0019002F
T2AE4 000:270.144   InitTarget() end - Took 7.75ms
T2AE4 000:272.529   Found SW-DP with ID 0x6BA02477
T2AE4 000:276.843   DPIDR: 0x6BA02477
T2AE4 000:278.523   CoreSight SoC-400 or earlier
T2AE4 000:281.011   Scanning AP map to find all available APs
T2AE4 000:283.844   AP[5]: Stopped AP scan as end of AP map has been reached
T2AE4 000:285.627   AP[0]: AHB-AP (IDR: 0x84770001, ADDR: 0x00000000)
T2AE4 000:287.735   AP[1]: MEM-AP (IDR: 0x002E0001, ADDR: 0x01000000)
T2AE4 000:289.351   AP[2]: JTAG-AP (IDR: 0x002E0000, ADDR: 0x02000000)
T2AE4 000:291.081   AP[3]: MEM-AP (IDR: 0x002E0003, ADDR: 0x03000000)
T2AE4 000:292.698   AP[4]: MEM-AP (IDR: 0x002E0002, ADDR: 0x04000000)
T2AE4 000:294.738   Iterating through AP map to find AHB-AP to use
T2AE4 000:298.201   AP[0]: Core found
T2AE4 000:300.044   AP[0]: AHB-AP ROM base: 0xF0000000
T2AE4 000:306.085   CPUID register: 0x410CC601. Implementer code: 0x41 (ARM)
T2AE4 000:308.646   Found Cortex-M0 r0p1, Little endian.
T2AE4 000:308.967   -- Max. mem block: 0x00010C40
T2AE4 000:309.307   CPU_ReadMem(4 bytes @ 0xE000EDF0)
T2AE4 000:309.520   CPU_WriteMem(4 bytes @ 0xE000EDF0)
T2AE4 000:309.751   CPU_ReadMem(4 bytes @ 0xE0002000)
T2AE4 000:312.297   FPUnit: 4 code (BP) slots and 0 literal slots
T2AE4 000:312.307   CPU_ReadMem(4 bytes @ 0xE000EDFC)
T2AE4 000:312.525   CPU_WriteMem(4 bytes @ 0xE000EDFC)
T2AE4 000:312.752   CPU_ReadMem(4 bytes @ 0xE0001000)
T2AE4 000:312.963   CPU_WriteMem(4 bytes @ 0xE0001000)
T2AE4 000:315.340   CoreSight components:
T2AE4 000:317.371   ROMTbl[0] @ F0000000
T2AE4 000:317.381   CPU_ReadMem(64 bytes @ 0xF0000000)
T2AE4 000:317.823   CPU_ReadMem(32 bytes @ 0xE00FFFE0)
T2AE4 000:319.952   [0][0]: E00FF000 CID B105100D PID 000BB4C0 ROM Table
T2AE4 000:321.677   ROMTbl[1] @ E00FF000
T2AE4 000:321.687   CPU_ReadMem(64 bytes @ 0xE00FF000)
T2AE4 000:322.145   CPU_ReadMem(32 bytes @ 0xE000EFE0)
T2AE4 000:324.311   [1][0]: E000E000 CID B105E00D PID 000BB008 SCS
T2AE4 000:324.321   CPU_ReadMem(32 bytes @ 0xE0001FE0)
T2AE4 000:327.225   [1][1]: E0001000 CID B105E00D PID 000BB00A DWT
T2AE4 000:327.237   CPU_ReadMem(32 bytes @ 0xE0002FE0)
T2AE4 000:329.655   [1][2]: E0002000 CID B105E00D PID 000BB00B FPB
T2AE4 000:329.666   CPU_ReadMem(32 bytes @ 0x40402FE0)
T2AE4 000:331.833   [0][2]: 40402000 CID B105900D PID 001BB932 MTB-M0+
T2AE4 000:331.997 - 74.029ms returns 0x6BA02477
T2AE4 000:332.006 JLINK_GetDLLVersion()
T2AE4 000:332.009 - 0.003ms returns 95800
T2AE4 000:332.031 JLINK_CORE_GetFound()
T2AE4 000:332.034 - 0.003ms returns 0x60000FF
T2AE4 000:332.038 JLINK_GetDebugInfo(0x100 = JLINKARM_ROM_TABLE_ADDR_INDEX)
T2AE4 000:332.041   Value=0xF0000000
T2AE4 000:332.045 - 0.007ms returns 0
T2AE4 000:333.848 JLINK_GetDebugInfo(0x100 = JLINKARM_ROM_TABLE_ADDR_INDEX)
T2AE4 000:333.856   Value=0xF0000000
T2AE4 000:333.860 - 0.012ms returns 0
T2AE4 000:333.864 JLINK_GetDebugInfo(0x101 = JLINKARM_DEBUG_INFO_ETM_ADDR_INDEX)
T2AE4 000:333.867   Value=0x00000000
T2AE4 000:333.870 - 0.006ms returns 0
T2AE4 000:333.880 JLINK_ReadMemEx(0xE0041FF0, 0x10 Bytes, Flags = 0x02000004)
T2AE4 000:333.898   CPU_ReadMem(16 bytes @ 0xE0041FF0)
T2AE4 000:334.143   Data:  00 00 00 00 00 00 00 00 00 00 00 00 00 00 00 00
T2AE4 000:334.148 - 0.267ms returns 16 (0x10)
T2AE4 000:334.152 JLINK_GetDebugInfo(0x102 = JLINKARM_DEBUG_INFO_MTB_ADDR_INDEX)
T2AE4 000:334.155   Value=0x40402000
T2AE4 000:334.159 - 0.006ms returns 0
T2AE4 000:334.162 JLINK_CORE_GetFound()
T2AE4 000:334.166 - 0.003ms returns 0x60000FF
T2AE4 000:334.170 JLINK_GetDebugInfo(0x103 = JLINKARM_DEBUG_INFO_TPIU_ADDR_INDEX)
T2AE4 000:334.173   Value=0x00000000
T2AE4 000:334.177 - 0.006ms returns 0
T2AE4 000:334.180 JLINK_ReadMemEx(0xE0040FF0, 0x10 Bytes, Flags = 0x02000004)
T2AE4 000:334.184   CPU_ReadMem(16 bytes @ 0xE0040FF0)
T2AE4 000:334.422   Data:  00 00 00 00 00 00 00 00 00 00 00 00 00 00 00 00
T2AE4 000:334.426 - 0.246ms returns 16 (0x10)
T2AE4 000:334.431 JLINK_GetDebugInfo(0x104 = JLINKARM_DEBUG_INFO_ITM_ADDR_INDEX)
T2AE4 000:334.433   Value=0xE0000000
T2AE4 000:334.437 - 0.006ms returns 0
T2AE4 000:334.440 JLINK_GetDebugInfo(0x105 = JLINKARM_DEBUG_INFO_DWT_ADDR_INDEX)
T2AE4 000:334.443   Value=0xE0001000
T2AE4 000:334.446 - 0.006ms returns 0
T2AE4 000:334.450 JLINK_GetDebugInfo(0x106 = JLINKARM_DEBUG_INFO_FPB_ADDR_INDEX)
T2AE4 000:334.452   Value=0xE0002000
T2AE4 000:334.456 - 0.006ms returns 0
T2AE4 000:334.459 JLINK_GetDebugInfo(0x107 = JLINKARM_DEBUG_INFO_NVIC_ADDR_INDEX)
T2AE4 000:334.462   Value=0xE000E000
T2AE4 000:334.465 - 0.006ms returns 0
T2AE4 000:334.469 JLINK_GetDebugInfo(0x10C = JLINKARM_DEBUG_INFO_DBG_ADDR_INDEX)
T2AE4 000:334.471   Value=0xE000EDF0
T2AE4 000:334.478 - 0.009ms returns 0
T2AE4 000:334.481 JLINK_GetDebugInfo(0x01 = Unknown)
T2AE4 000:334.484   Value=0x00000000
T2AE4 000:334.488 - 0.006ms returns 0
T2AE4 000:334.491 JLINK_ReadMemU32(0xE000ED00, 0x1 Items)
T2AE4 000:334.495   CPU_ReadMem(4 bytes @ 0xE000ED00)
T2AE4 000:334.730   Data:  01 C6 0C 41
T2AE4 000:334.739   Debug reg: CPUID
T2AE4 000:334.743 - 0.251ms returns 1 (0x1)
T2AE4 000:334.749 JLINK_GetDebugInfo(0x10F = JLINKARM_DEBUG_INFO_HAS_CORTEX_M_SECURITY_EXT_INDEX)
T2AE4 000:334.752   Value=0x00000000
T2AE4 000:334.755 - 0.006ms returns 0
T2AE4 000:334.759 JLINK_HasError()
T2AE4 000:334.763 JLINK_SetResetType(JLINKARM_CM3_RESET_TYPE_NORMAL)
T2AE4 000:334.766 - 0.003ms returns JLINKARM_CM3_RESET_TYPE_NORMAL
T2AE4 000:334.776 JLINK_Reset()
T2AE4 000:336.507   ResetTarget() start
T2AE4 000:336.516    J-Link Script File: Executing ResetTarget()
T2AE4 000:336.523   CPU_ReadMem(4 bytes @ 0xE000EDF0)
T2AE4 000:336.816   CPU is running
T2AE4 000:336.821   CPU_WriteMem(4 bytes @ 0xE000EDF0)
T2AE4 000:337.019   CPU_ReadMem(4 bytes @ 0x400B0300)
T2AE4 000:337.230   CPU_ReadMem(4 bytes @ 0xE000EDFC)
T2AE4 000:337.436   CPU is running
T2AE4 000:337.441   CPU_WriteMem(4 bytes @ 0xE000EDFC)
T2AE4 000:337.666   CPU is running
T2AE4 000:337.670   CPU_WriteMem(4 bytes @ 0x400B0300)
T2AE4 000:337.866   CPU is running
T2AE4 000:337.870   CPU_WriteMem(4 bytes @ 0x400B0304)
T2AE4 000:338.073   CPU_ReadMem(4 bytes @ 0xE000EDF0)
T2AE4 000:340.467   DAP initialized successfully.
T2AE4 000:340.478   CPU is running
T2AE4 000:340.484   CPU_WriteMem(4 bytes @ 0xE000EDFC)
T2AE4 000:342.462   ResetTarget() end - Took 4.23ms
T2AE4 000:344.664   Device specific reset executed.
T2AE4 000:346.908   CPU_WriteMem(4 bytes @ 0xE0002000)
T2AE4 000:347.125   CPU_ReadMem(4 bytes @ 0xE000EDFC)
T2AE4 000:347.356   CPU_ReadMem(4 bytes @ 0xE0001000)
T2AE4 000:347.583   CPU_WriteMem(4 bytes @ 0xE0001000)
T2AE4 000:347.843 - 13.067ms 
T2AE4 000:347.850 JLINK_Halt()
T2AE4 000:347.853 - 0.002ms returns 0x00
T2AE4 000:347.857 JLINK_ReadMemU32(0xE000EDF0, 0x1 Items)
T2AE4 000:347.863   CPU_ReadMem(4 bytes @ 0xE000EDF0)
T2AE4 000:348.068   Data:  03 00 03 00
T2AE4 000:348.074   Debug reg: DHCSR
T2AE4 000:348.078 - 0.220ms returns 1 (0x1)
T2AE4 000:348.083 JLINK_WriteU32(0xE000EDF0, 0xA05F0003)
T2AE4 000:348.086   Debug reg: DHCSR
T2AE4 000:348.299   CPU_WriteMem(4 bytes @ 0xE000EDF0)
T2AE4 000:348.550 - 0.466ms returns 0 (0x00000000)
T2AE4 000:348.554 JLINK_WriteU32(0xE000EDFC, 0x01000000)
T2AE4 000:348.557   Debug reg: DEMCR
T2AE4 000:348.562   CPU_WriteMem(4 bytes @ 0xE000EDFC)
T2AE4 000:348.825 - 0.270ms returns 0 (0x00000000)
T2AE4 000:355.611 JLINK_GetHWStatus(...)
T2AE4 000:355.746 - 0.135ms returns 0
T2AE4 000:362.914 JLINK_GetNumBPUnits(Type = 0xFFFFFF00)
T2AE4 000:362.925 - 0.010ms returns 0x04
T2AE4 000:362.929 JLINK_GetNumBPUnits(Type = 0xF0)
T2AE4 000:362.932 - 0.002ms returns 0x2000
T2AE4 000:362.935 JLINK_GetNumWPUnits()
T2AE4 000:362.938 - 0.002ms returns 2
T2AE4 000:368.386 JLINK_GetSpeed()
T2AE4 000:368.394 - 0.008ms returns 4000
T2AE4 000:371.932 JLINK_ReadMemU32(0xE000E004, 0x1 Items)
T2AE4 000:371.952   CPU_ReadMem(4 bytes @ 0xE000E004)
T2AE4 000:372.198   Data:  00 00 00 00
T2AE4 000:372.204 - 0.272ms returns 1 (0x1)
T2AE4 000:372.213 JLINK_Halt()
T2AE4 000:372.216 - 0.003ms returns 0x00
T2AE4 000:372.220 JLINK_IsHalted()
T2AE4 000:372.224 - 0.004ms returns TRUE
T2AE4 000:378.996 JLINK_WriteMem(0x20200000, 0x294 Bytes, ...)
T2AE4 000:379.005   Data:  00 BE 0A E0 0D 78 2D 06 68 40 08 24 40 00 00 D3 ...
T2AE4 000:379.246   CPU_WriteMem(660 bytes @ 0x20200000)
T2AE4 000:381.717 - 2.718ms returns 0x294
T2AE4 000:381.754 JLINK_HasError()
T2AE4 000:381.765 JLINK_WriteReg(R0, 0x00000000)
T2AE4 000:381.769 - 0.010ms returns 0
T2AE4 000:381.773 JLINK_WriteReg(R1, 0x00B71B00)
T2AE4 000:381.777 - 0.003ms returns 0
T2AE4 000:381.780 JLINK_WriteReg(R2, 0x00000001)
T2AE4 000:381.783 - 0.003ms returns 0
T2AE4 000:381.787 JLINK_WriteReg(R3, 0x00000000)
T2AE4 000:381.790 - 0.002ms returns 0
T2AE4 000:381.796 JLINK_WriteReg(R4, 0x00000000)
T2AE4 000:381.799 - 0.003ms returns 0
T2AE4 000:381.803 JLINK_WriteReg(R5, 0x00000000)
T2AE4 000:381.806 - 0.002ms returns 0
T2AE4 000:381.809 JLINK_WriteReg(R6, 0x00000000)
T2AE4 000:381.812 - 0.002ms returns 0
T2AE4 000:381.816 JLINK_WriteReg(R7, 0x00000000)
T2AE4 000:381.819 - 0.002ms returns 0
T2AE4 000:381.823 JLINK_WriteReg(R8, 0x00000000)
T2AE4 000:381.826 - 0.002ms returns 0
T2AE4 000:381.829 JLINK_WriteReg(R9, 0x20200290)
T2AE4 000:381.832 - 0.003ms returns 0
T2AE4 000:381.836 JLINK_WriteReg(R10, 0x00000000)
T2AE4 000:381.839 - 0.003ms returns 0
T2AE4 000:381.843 JLINK_WriteReg(R11, 0x00000000)
T2AE4 000:381.846 - 0.002ms returns 0
T2AE4 000:381.849 JLINK_WriteReg(R12, 0x00000000)
T2AE4 000:381.852 - 0.002ms returns 0
T2AE4 000:381.856 JLINK_WriteReg(R13 (SP), 0x20208000)
T2AE4 000:381.860 - 0.003ms returns 0
T2AE4 000:381.863 JLINK_WriteReg(R14, 0x20200001)
T2AE4 000:381.866 - 0.003ms returns 0
T2AE4 000:381.873 JLINK_WriteReg(R15 (PC), 0x20200038)
T2AE4 000:381.876 - 0.006ms returns 0
T2AE4 000:381.880 JLINK_WriteReg(XPSR, 0x01000000)
T2AE4 000:381.883 - 0.003ms returns 0
T2AE4 000:381.887 JLINK_WriteReg(MSP, 0x20208000)
T2AE4 000:381.890 - 0.002ms returns 0
T2AE4 000:381.894 JLINK_WriteReg(PSP, 0x20208000)
T2AE4 000:381.897 - 0.002ms returns 0
T2AE4 000:381.900 JLINK_WriteReg(CFBP, 0x00000000)
T2AE4 000:381.903 - 0.002ms returns 0
T2AE4 000:381.923 JLINK_SetBPEx(Addr = 0x20200000, Type = 0xFFFFFFF2)
T2AE4 000:381.931   CPU_ReadMem(2 bytes @ 0x20200000)
T2AE4 000:382.145 - 0.221ms returns 0x00000001
T2AE4 000:382.150 JLINK_Go()
T2AE4 000:382.158   CPU_WriteMem(2 bytes @ 0x20200000)
T2AE4 000:382.369   CPU_ReadMem(4 bytes @ 0xE0001000)
T2AE4 000:382.571   CPU_WriteMem(4 bytes @ 0xE0001000)
T2AE4 000:382.828   CPU_WriteMem(4 bytes @ 0xE0002008)
T2AE4 000:382.833   CPU_WriteMem(4 bytes @ 0xE000200C)
T2AE4 000:382.837   CPU_WriteMem(4 bytes @ 0xE0002010)
T2AE4 000:382.841   CPU_WriteMem(4 bytes @ 0xE0002014)
T2AE4 000:383.490   CPU_WriteMem(4 bytes @ 0xE0001004)
T2AE4 000:387.918   Memory map 'after startup completion point' is active
T2AE4 000:387.928 - 5.778ms 
T2AE4 000:387.934 JLINK_IsHalted()
T2AE4 000:389.757   CPU_ReadMem(2 bytes @ 0x20200000)
T2AE4 000:390.188 - 2.254ms returns TRUE
T2AE4 000:390.198 JLINK_ReadReg(R15 (PC))
T2AE4 000:390.202 - 0.004ms returns 0x20200000
T2AE4 000:390.206 JLINK_ClrBPEx(BPHandle = 0x00000001)
T2AE4 000:390.210 - 0.003ms returns 0x00
T2AE4 000:390.214 JLINK_ReadReg(R0)
T2AE4 000:390.217 - 0.003ms returns 0x00000000
T2AE4 000:390.817 JLINK_HasError()
T2AE4 000:390.824 JLINK_WriteReg(R0, 0x00000000)
T2AE4 000:390.830 - 0.005ms returns 0
T2AE4 000:390.833 JLINK_WriteReg(R1, 0x00B71B00)
T2AE4 000:390.836 - 0.002ms returns 0
T2AE4 000:390.839 JLINK_WriteReg(R2, 0x00000001)
T2AE4 000:390.842 - 0.002ms returns 0
T2AE4 000:390.845 JLINK_WriteReg(R3, 0x00000000)
T2AE4 000:390.847 - 0.002ms returns 0
T2AE4 000:390.851 JLINK_WriteReg(R4, 0x00000000)
T2AE4 000:390.853 - 0.002ms returns 0
T2AE4 000:390.856 JLINK_WriteReg(R5, 0x00000000)
T2AE4 000:390.859 - 0.002ms returns 0
T2AE4 000:390.862 JLINK_WriteReg(R6, 0x00000000)
T2AE4 000:390.865 - 0.002ms returns 0
T2AE4 000:390.868 JLINK_WriteReg(R7, 0x00000000)
T2AE4 000:390.871 - 0.002ms returns 0
T2AE4 000:390.874 JLINK_WriteReg(R8, 0x00000000)
T2AE4 000:390.877 - 0.002ms returns 0
T2AE4 000:390.880 JLINK_WriteReg(R9, 0x20200290)
T2AE4 000:390.882 - 0.002ms returns 0
T2AE4 000:390.886 JLINK_WriteReg(R10, 0x00000000)
T2AE4 000:390.888 - 0.002ms returns 0
T2AE4 000:390.892 JLINK_WriteReg(R11, 0x00000000)
T2AE4 000:390.894 - 0.002ms returns 0
T2AE4 000:390.897 JLINK_WriteReg(R12, 0x00000000)
T2AE4 000:390.900 - 0.002ms returns 0
T2AE4 000:390.903 JLINK_WriteReg(R13 (SP), 0x20208000)
T2AE4 000:390.906 - 0.003ms returns 0
T2AE4 000:390.909 JLINK_WriteReg(R14, 0x20200001)
T2AE4 000:390.912 - 0.002ms returns 0
T2AE4 000:390.915 JLINK_WriteReg(R15 (PC), 0x2020010C)
T2AE4 000:390.918 - 0.002ms returns 0
T2AE4 000:390.942 JLINK_WriteReg(XPSR, 0x01000000)
T2AE4 000:390.945 - 0.002ms returns 0
T2AE4 000:390.948 JLINK_WriteReg(MSP, 0x20208000)
T2AE4 000:390.951 - 0.002ms returns 0
T2AE4 000:390.954 JLINK_WriteReg(PSP, 0x20208000)
T2AE4 000:390.957 - 0.002ms returns 0
T2AE4 000:390.960 JLINK_WriteReg(CFBP, 0x00000000)
T2AE4 000:390.962 - 0.002ms returns 0
T2AE4 000:390.966 JLINK_SetBPEx(Addr = 0x20200000, Type = 0xFFFFFFF2)
T2AE4 000:390.970 - 0.003ms returns 0x00000002
T2AE4 000:390.973 JLINK_Go()
T2AE4 000:390.984   CPU_ReadMem(4 bytes @ 0xE0001000)
T2AE4 000:392.976 - 2.002ms 
T2AE4 000:392.983 JLINK_IsHalted()
T2AE4 000:393.183 - 0.200ms returns FALSE
T2AE4 000:393.188 JLINK_HasError()
T2AE4 000:470.043 JLINK_IsHalted()
T2AE4 000:471.884   CPU_ReadMem(2 bytes @ 0x20200000)
T2AE4 000:472.098 - 2.054ms returns TRUE
T2AE4 000:472.106 JLINK_ReadReg(R15 (PC))
T2AE4 000:472.110 - 0.003ms returns 0x20200000
T2AE4 000:472.114 JLINK_ClrBPEx(BPHandle = 0x00000002)
T2AE4 000:472.117 - 0.003ms returns 0x00
T2AE4 000:472.120 JLINK_ReadReg(R0)
T2AE4 000:472.123 - 0.002ms returns 0x00000000
T2AE4 000:524.696 JLINK_HasError()
T2AE4 000:524.709 JLINK_WriteReg(R0, 0x00000001)
T2AE4 000:524.714 - 0.004ms returns 0
T2AE4 000:524.717 JLINK_WriteReg(R1, 0x00B71B00)
T2AE4 000:524.720 - 0.002ms returns 0
T2AE4 000:524.723 JLINK_WriteReg(R2, 0x00000001)
T2AE4 000:524.726 - 0.002ms returns 0
T2AE4 000:524.729 JLINK_WriteReg(R3, 0x00000000)
T2AE4 000:524.732 - 0.002ms returns 0
T2AE4 000:524.735 JLINK_WriteReg(R4, 0x00000000)
T2AE4 000:524.738 - 0.002ms returns 0
T2AE4 000:524.741 JLINK_WriteReg(R5, 0x00000000)
T2AE4 000:524.743 - 0.002ms returns 0
T2AE4 000:524.747 JLINK_WriteReg(R6, 0x00000000)
T2AE4 000:524.749 - 0.002ms returns 0
T2AE4 000:524.753 JLINK_WriteReg(R7, 0x00000000)
T2AE4 000:524.755 - 0.002ms returns 0
T2AE4 000:524.758 JLINK_WriteReg(R8, 0x00000000)
T2AE4 000:524.761 - 0.002ms returns 0
T2AE4 000:524.764 JLINK_WriteReg(R9, 0x20200290)
T2AE4 000:524.767 - 0.002ms returns 0
T2AE4 000:524.770 JLINK_WriteReg(R10, 0x00000000)
T2AE4 000:524.773 - 0.002ms returns 0
T2AE4 000:524.776 JLINK_WriteReg(R11, 0x00000000)
T2AE4 000:524.779 - 0.002ms returns 0
T2AE4 000:524.782 JLINK_WriteReg(R12, 0x00000000)
T2AE4 000:524.784 - 0.002ms returns 0
T2AE4 000:524.788 JLINK_WriteReg(R13 (SP), 0x20208000)
T2AE4 000:524.791 - 0.003ms returns 0
T2AE4 000:524.794 JLINK_WriteReg(R14, 0x20200001)
T2AE4 000:524.797 - 0.002ms returns 0
T2AE4 000:524.800 JLINK_WriteReg(R15 (PC), 0x20200094)
T2AE4 000:524.803 - 0.002ms returns 0
T2AE4 000:524.806 JLINK_WriteReg(XPSR, 0x01000000)
T2AE4 000:524.809 - 0.002ms returns 0
T2AE4 000:524.812 JLINK_WriteReg(MSP, 0x20208000)
T2AE4 000:524.815 - 0.002ms returns 0
T2AE4 000:524.818 JLINK_WriteReg(PSP, 0x20208000)
T2AE4 000:524.820 - 0.002ms returns 0
T2AE4 000:524.824 JLINK_WriteReg(CFBP, 0x00000000)
T2AE4 000:524.826 - 0.002ms returns 0
T2AE4 000:524.831 JLINK_SetBPEx(Addr = 0x20200000, Type = 0xFFFFFFF2)
T2AE4 000:524.835 - 0.004ms returns 0x00000003
T2AE4 000:524.839 JLINK_Go()
T2AE4 000:524.851   CPU_ReadMem(4 bytes @ 0xE0001000)
T2AE4 000:526.943 - 2.103ms 
T2AE4 000:526.951 JLINK_IsHalted()
T2AE4 000:528.742   CPU_ReadMem(2 bytes @ 0x20200000)
T2AE4 000:528.955 - 2.003ms returns TRUE
T2AE4 000:528.961 JLINK_ReadReg(R15 (PC))
T2AE4 000:528.964 - 0.003ms returns 0x20200000
T2AE4 000:528.968 JLINK_ClrBPEx(BPHandle = 0x00000003)
T2AE4 000:528.971 - 0.002ms returns 0x00
T2AE4 000:528.975 JLINK_ReadReg(R0)
T2AE4 000:528.978 - 0.002ms returns 0x00000000
T2AE4 000:534.656 JLINK_WriteMem(0x20200000, 0x294 Bytes, ...)
T2AE4 000:534.662   Data:  00 BE 0A E0 0D 78 2D 06 68 40 08 24 40 00 00 D3 ...
T2AE4 000:534.672   CPU_WriteMem(660 bytes @ 0x20200000)
T2AE4 000:537.083 - 2.427ms returns 0x294
T2AE4 000:537.111 JLINK_HasError()
T2AE4 000:537.115 JLINK_WriteReg(R0, 0x00000000)
T2AE4 000:537.119 - 0.003ms returns 0
T2AE4 000:537.122 JLINK_WriteReg(R1, 0x00B71B00)
T2AE4 000:537.125 - 0.002ms returns 0
T2AE4 000:537.128 JLINK_WriteReg(R2, 0x00000002)
T2AE4 000:537.133 - 0.004ms returns 0
T2AE4 000:537.136 JLINK_WriteReg(R3, 0x00000000)
T2AE4 000:537.138 - 0.002ms returns 0
T2AE4 000:537.142 JLINK_WriteReg(R4, 0x00000000)
T2AE4 000:537.144 - 0.002ms returns 0
T2AE4 000:537.148 JLINK_WriteReg(R5, 0x00000000)
T2AE4 000:537.150 - 0.002ms returns 0
T2AE4 000:537.153 JLINK_WriteReg(R6, 0x00000000)
T2AE4 000:537.156 - 0.002ms returns 0
T2AE4 000:537.159 JLINK_WriteReg(R7, 0x00000000)
T2AE4 000:537.162 - 0.002ms returns 0
T2AE4 000:537.165 JLINK_WriteReg(R8, 0x00000000)
T2AE4 000:537.168 - 0.002ms returns 0
T2AE4 000:537.171 JLINK_WriteReg(R9, 0x20200290)
T2AE4 000:537.173 - 0.002ms returns 0
T2AE4 000:537.177 JLINK_WriteReg(R10, 0x00000000)
T2AE4 000:537.179 - 0.002ms returns 0
T2AE4 000:537.183 JLINK_WriteReg(R11, 0x00000000)
T2AE4 000:537.185 - 0.002ms returns 0
T2AE4 000:537.188 JLINK_WriteReg(R12, 0x00000000)
T2AE4 000:537.191 - 0.002ms returns 0
T2AE4 000:537.194 JLINK_WriteReg(R13 (SP), 0x20208000)
T2AE4 000:537.197 - 0.003ms returns 0
T2AE4 000:537.201 JLINK_WriteReg(R14, 0x20200001)
T2AE4 000:537.203 - 0.002ms returns 0
T2AE4 000:537.206 JLINK_WriteReg(R15 (PC), 0x20200038)
T2AE4 000:537.209 - 0.002ms returns 0
T2AE4 000:537.212 JLINK_WriteReg(XPSR, 0x01000000)
T2AE4 000:537.215 - 0.002ms returns 0
T2AE4 000:537.218 JLINK_WriteReg(MSP, 0x20208000)
T2AE4 000:537.221 - 0.002ms returns 0
T2AE4 000:537.224 JLINK_WriteReg(PSP, 0x20208000)
T2AE4 000:537.227 - 0.002ms returns 0
T2AE4 000:537.230 JLINK_WriteReg(CFBP, 0x00000000)
T2AE4 000:537.232 - 0.002ms returns 0
T2AE4 000:537.236 JLINK_SetBPEx(Addr = 0x20200000, Type = 0xFFFFFFF2)
T2AE4 000:537.241   CPU_ReadMem(2 bytes @ 0x20200000)
T2AE4 000:537.480 - 0.243ms returns 0x00000004
T2AE4 000:537.484 JLINK_Go()
T2AE4 000:537.488   CPU_WriteMem(2 bytes @ 0x20200000)
T2AE4 000:537.732   CPU_ReadMem(4 bytes @ 0xE0001000)
T2AE4 000:539.749 - 2.264ms 
T2AE4 000:539.756 JLINK_IsHalted()
T2AE4 000:541.565   CPU_ReadMem(2 bytes @ 0x20200000)
T2AE4 000:541.808 - 2.051ms returns TRUE
T2AE4 000:541.817 JLINK_ReadReg(R15 (PC))
T2AE4 000:541.820 - 0.003ms returns 0x20200000
T2AE4 000:541.824 JLINK_ClrBPEx(BPHandle = 0x00000004)
T2AE4 000:541.826 - 0.002ms returns 0x00
T2AE4 000:541.830 JLINK_ReadReg(R0)
T2AE4 000:541.833 - 0.002ms returns 0x00000000
T2AE4 000:542.012 JLINK_WriteMem(0x20200294, 0x16C Bytes, ...)
T2AE4 000:542.016   Data:  F0 59 20 20 D5 00 00 00 D9 00 00 00 DB 00 00 00 ...
T2AE4 000:542.025   CPU_WriteMem(364 bytes @ 0x20200294)
T2AE4 000:543.528 - 1.513ms returns 0x16C
T2AE4 000:543.554 JLINK_WriteMem(0x20200400, 0x294 Bytes, ...)
T2AE4 000:543.557   Data:  6D 0A 00 00 FF B5 00 27 FF 43 83 B0 00 20 5C 68 ...
T2AE4 000:543.566   CPU_WriteMem(660 bytes @ 0x20200400)
T2AE4 000:546.047 - 2.493ms returns 0x294
T2AE4 000:546.057 JLINK_HasError()
T2AE4 000:546.061 JLINK_WriteReg(R0, 0x00000000)
T2AE4 000:546.066 - 0.005ms returns 0
T2AE4 000:546.069 JLINK_WriteReg(R1, 0x00000400)
T2AE4 000:546.072 - 0.002ms returns 0
T2AE4 000:546.075 JLINK_WriteReg(R2, 0x20200294)
T2AE4 000:546.078 - 0.002ms returns 0
T2AE4 000:546.081 JLINK_WriteReg(R3, 0x00000000)
T2AE4 000:546.083 - 0.002ms returns 0
T2AE4 000:546.087 JLINK_WriteReg(R4, 0x00000000)
T2AE4 000:546.089 - 0.002ms returns 0
T2AE4 000:546.094 JLINK_WriteReg(R5, 0x00000000)
T2AE4 000:546.096 - 0.002ms returns 0
T2AE4 000:546.099 JLINK_WriteReg(R6, 0x00000000)
T2AE4 000:546.102 - 0.002ms returns 0
T2AE4 000:546.105 JLINK_WriteReg(R7, 0x00000000)
T2AE4 000:546.108 - 0.002ms returns 0
T2AE4 000:546.111 JLINK_WriteReg(R8, 0x00000000)
T2AE4 000:546.113 - 0.002ms returns 0
T2AE4 000:546.116 JLINK_WriteReg(R9, 0x20200290)
T2AE4 000:546.119 - 0.002ms returns 0
T2AE4 000:546.122 JLINK_WriteReg(R10, 0x00000000)
T2AE4 000:546.125 - 0.003ms returns 0
T2AE4 000:546.130 JLINK_WriteReg(R11, 0x00000000)
T2AE4 000:546.132 - 0.002ms returns 0
T2AE4 000:546.135 JLINK_WriteReg(R12, 0x00000000)
T2AE4 000:546.138 - 0.002ms returns 0
T2AE4 000:546.141 JLINK_WriteReg(R13 (SP), 0x20208000)
T2AE4 000:546.145 - 0.004ms returns 0
T2AE4 000:546.149 JLINK_WriteReg(R14, 0x20200001)
T2AE4 000:546.152 - 0.002ms returns 0
T2AE4 000:546.155 JLINK_WriteReg(R15 (PC), 0x20200120)
T2AE4 000:546.158 - 0.002ms returns 0
T2AE4 000:546.161 JLINK_WriteReg(XPSR, 0x01000000)
T2AE4 000:546.164 - 0.002ms returns 0
T2AE4 000:546.167 JLINK_WriteReg(MSP, 0x20208000)
T2AE4 000:546.169 - 0.002ms returns 0
T2AE4 000:546.173 JLINK_WriteReg(PSP, 0x20208000)
T2AE4 000:546.175 - 0.002ms returns 0
T2AE4 000:546.178 JLINK_WriteReg(CFBP, 0x00000000)
T2AE4 000:546.181 - 0.002ms returns 0
T2AE4 000:546.184 JLINK_SetBPEx(Addr = 0x20200000, Type = 0xFFFFFFF2)
T2AE4 000:546.187 - 0.003ms returns 0x00000005
T2AE4 000:546.191 JLINK_Go()
T2AE4 000:546.198   CPU_ReadMem(4 bytes @ 0xE0001000)
T2AE4 000:548.218 - 2.026ms 
T2AE4 000:548.227 JLINK_IsHalted()
T2AE4 000:548.469 - 0.241ms returns FALSE
T2AE4 000:548.478 JLINK_HasError()
T2AE4 000:599.828 JLINK_IsHalted()
T2AE4 000:601.783   CPU_ReadMem(2 bytes @ 0x20200000)
T2AE4 000:602.011 - 2.183ms returns TRUE
T2AE4 000:602.021 JLINK_ReadReg(R15 (PC))
T2AE4 000:602.025 - 0.003ms returns 0x20200000
T2AE4 000:602.029 JLINK_ClrBPEx(BPHandle = 0x00000005)
T2AE4 000:602.032 - 0.003ms returns 0x00
T2AE4 000:602.035 JLINK_ReadReg(R0)
T2AE4 000:602.038 - 0.002ms returns 0x00000000
T2AE4 000:602.390 JLINK_WriteMem(0x20200294, 0x16C Bytes, ...)
T2AE4 000:602.396   Data:  C4 0D D3 0D 41 02 01 20 C0 05 52 02 49 0A 52 0A ...
T2AE4 000:602.405   CPU_WriteMem(364 bytes @ 0x20200294)
T2AE4 000:603.830 - 1.440ms returns 0x16C
T2AE4 000:603.840 JLINK_WriteMem(0x20200400, 0x294 Bytes, ...)
T2AE4 000:603.843   Data:  01 26 12 05 C0 1A 91 41 36 05 00 1C 71 41 CE 07 ...
T2AE4 000:603.851   CPU_WriteMem(660 bytes @ 0x20200400)
T2AE4 000:606.197 - 2.357ms returns 0x294
T2AE4 000:606.207 JLINK_HasError()
T2AE4 000:606.212 JLINK_WriteReg(R0, 0x00000400)
T2AE4 000:606.217 - 0.004ms returns 0
T2AE4 000:606.220 JLINK_WriteReg(R1, 0x00000400)
T2AE4 000:606.225 - 0.004ms returns 0
T2AE4 000:606.228 JLINK_WriteReg(R2, 0x20200294)
T2AE4 000:606.231 - 0.002ms returns 0
T2AE4 000:606.234 JLINK_WriteReg(R3, 0x00000000)
T2AE4 000:606.237 - 0.002ms returns 0
T2AE4 000:606.240 JLINK_WriteReg(R4, 0x00000000)
T2AE4 000:606.243 - 0.002ms returns 0
T2AE4 000:606.246 JLINK_WriteReg(R5, 0x00000000)
T2AE4 000:606.248 - 0.002ms returns 0
T2AE4 000:606.252 JLINK_WriteReg(R6, 0x00000000)
T2AE4 000:606.254 - 0.002ms returns 0
T2AE4 000:606.258 JLINK_WriteReg(R7, 0x00000000)
T2AE4 000:606.260 - 0.002ms returns 0
T2AE4 000:606.264 JLINK_WriteReg(R8, 0x00000000)
T2AE4 000:606.266 - 0.002ms returns 0
T2AE4 000:606.270 JLINK_WriteReg(R9, 0x20200290)
T2AE4 000:606.272 - 0.002ms returns 0
T2AE4 000:606.276 JLINK_WriteReg(R10, 0x00000000)
T2AE4 000:606.278 - 0.002ms returns 0
T2AE4 000:606.282 JLINK_WriteReg(R11, 0x00000000)
T2AE4 000:606.284 - 0.002ms returns 0
T2AE4 000:606.288 JLINK_WriteReg(R12, 0x00000000)
T2AE4 000:606.290 - 0.002ms returns 0
T2AE4 000:606.294 JLINK_WriteReg(R13 (SP), 0x20208000)
T2AE4 000:606.297 - 0.003ms returns 0
T2AE4 000:606.300 JLINK_WriteReg(R14, 0x20200001)
T2AE4 000:606.303 - 0.002ms returns 0
T2AE4 000:606.306 JLINK_WriteReg(R15 (PC), 0x20200120)
T2AE4 000:606.309 - 0.002ms returns 0
T2AE4 000:606.312 JLINK_WriteReg(XPSR, 0x01000000)
T2AE4 000:606.315 - 0.002ms returns 0
T2AE4 000:606.318 JLINK_WriteReg(MSP, 0x20208000)
T2AE4 000:606.321 - 0.002ms returns 0
T2AE4 000:606.324 JLINK_WriteReg(PSP, 0x20208000)
T2AE4 000:606.327 - 0.002ms returns 0
T2AE4 000:606.330 JLINK_WriteReg(CFBP, 0x00000000)
T2AE4 000:606.333 - 0.002ms returns 0
T2AE4 000:606.337 JLINK_SetBPEx(Addr = 0x20200000, Type = 0xFFFFFFF2)
T2AE4 000:606.340 - 0.003ms returns 0x00000006
T2AE4 000:606.343 JLINK_Go()
T2AE4 000:606.351   CPU_ReadMem(4 bytes @ 0xE0001000)
T2AE4 000:608.368 - 2.024ms 
T2AE4 000:608.376 JLINK_IsHalted()
T2AE4 000:608.586 - 0.210ms returns FALSE
T2AE4 000:608.596 JLINK_HasError()
T2AE4 000:614.362 JLINK_IsHalted()
T2AE4 000:614.667 - 0.304ms returns FALSE
T2AE4 000:614.673 JLINK_HasError()
T2AE4 000:617.883 JLINK_IsHalted()
T2AE4 000:619.745   CPU_ReadMem(2 bytes @ 0x20200000)
T2AE4 000:620.060 - 2.176ms returns TRUE
T2AE4 000:620.072 JLINK_ReadReg(R15 (PC))
T2AE4 000:620.076 - 0.004ms returns 0x20200000
T2AE4 000:620.082 JLINK_ClrBPEx(BPHandle = 0x00000006)
T2AE4 000:620.086 - 0.003ms returns 0x00
T2AE4 000:620.090 JLINK_ReadReg(R0)
T2AE4 000:620.094 - 0.003ms returns 0x00000000
T2AE4 000:620.496 JLINK_WriteMem(0x20200294, 0x16C Bytes, ...)
T2AE4 000:620.502   Data:  40 18 CA 07 96 23 00 21 00 F0 4A F9 10 BD 10 B5 ...
T2AE4 000:620.512   CPU_WriteMem(364 bytes @ 0x20200294)
T2AE4 000:622.066 - 1.570ms returns 0x16C
T2AE4 000:622.077 JLINK_WriteMem(0x20200400, 0x294 Bytes, ...)
T2AE4 000:622.081   Data:  36 1A 8F 41 01 97 22 46 01 20 00 21 00 9F 00 F0 ...
T2AE4 000:622.090   CPU_WriteMem(660 bytes @ 0x20200400)
T2AE4 000:624.470 - 2.393ms returns 0x294
T2AE4 000:624.482 JLINK_HasError()
T2AE4 000:624.494 JLINK_WriteReg(R0, 0x00000800)
T2AE4 000:624.514 - 0.020ms returns 0
T2AE4 000:624.517 JLINK_WriteReg(R1, 0x00000400)
T2AE4 000:624.520 - 0.003ms returns 0
T2AE4 000:624.524 JLINK_WriteReg(R2, 0x20200294)
T2AE4 000:624.527 - 0.003ms returns 0
T2AE4 000:624.531 JLINK_WriteReg(R3, 0x00000000)
T2AE4 000:624.534 - 0.003ms returns 0
T2AE4 000:624.538 JLINK_WriteReg(R4, 0x00000000)
T2AE4 000:624.541 - 0.003ms returns 0
T2AE4 000:624.545 JLINK_WriteReg(R5, 0x00000000)
T2AE4 000:624.548 - 0.003ms returns 0
T2AE4 000:624.551 JLINK_WriteReg(R6, 0x00000000)
T2AE4 000:624.554 - 0.003ms returns 0
T2AE4 000:624.558 JLINK_WriteReg(R7, 0x00000000)
T2AE4 000:624.561 - 0.002ms returns 0
T2AE4 000:624.565 JLINK_WriteReg(R8, 0x00000000)
T2AE4 000:624.568 - 0.003ms returns 0
T2AE4 000:624.572 JLINK_WriteReg(R9, 0x20200290)
T2AE4 000:624.575 - 0.003ms returns 0
T2AE4 000:624.579 JLINK_WriteReg(R10, 0x00000000)
T2AE4 000:624.582 - 0.002ms returns 0
T2AE4 000:624.585 JLINK_WriteReg(R11, 0x00000000)
T2AE4 000:624.588 - 0.003ms returns 0
T2AE4 000:624.592 JLINK_WriteReg(R12, 0x00000000)
T2AE4 000:624.595 - 0.002ms returns 0
T2AE4 000:624.599 JLINK_WriteReg(R13 (SP), 0x20208000)
T2AE4 000:624.602 - 0.003ms returns 0
T2AE4 000:624.606 JLINK_WriteReg(R14, 0x20200001)
T2AE4 000:624.609 - 0.003ms returns 0
T2AE4 000:624.613 JLINK_WriteReg(R15 (PC), 0x20200120)
T2AE4 000:624.616 - 0.003ms returns 0
T2AE4 000:624.620 JLINK_WriteReg(XPSR, 0x01000000)
T2AE4 000:624.623 - 0.003ms returns 0
T2AE4 000:624.627 JLINK_WriteReg(MSP, 0x20208000)
T2AE4 000:624.630 - 0.003ms returns 0
T2AE4 000:624.634 JLINK_WriteReg(PSP, 0x20208000)
T2AE4 000:624.637 - 0.003ms returns 0
T2AE4 000:624.640 JLINK_WriteReg(CFBP, 0x00000000)
T2AE4 000:624.643 - 0.003ms returns 0
T2AE4 000:624.648 JLINK_SetBPEx(Addr = 0x20200000, Type = 0xFFFFFFF2)
T2AE4 000:624.651 - 0.004ms returns 0x00000007
T2AE4 000:624.655 JLINK_Go()
T2AE4 000:624.664   CPU_ReadMem(4 bytes @ 0xE0001000)
T2AE4 000:626.950 - 2.293ms 
T2AE4 000:626.959 JLINK_IsHalted()
T2AE4 000:627.161 - 0.201ms returns FALSE
T2AE4 000:627.166 JLINK_HasError()
T2AE4 000:630.712 JLINK_IsHalted()
T2AE4 000:630.997 - 0.286ms returns FALSE
T2AE4 000:631.006 JLINK_HasError()
T2AE4 000:640.492 JLINK_IsHalted()
T2AE4 000:642.334   CPU_ReadMem(2 bytes @ 0x20200000)
T2AE4 000:642.568 - 2.076ms returns TRUE
T2AE4 000:642.573 JLINK_ReadReg(R15 (PC))
T2AE4 000:642.577 - 0.003ms returns 0x20200000
T2AE4 000:642.581 JLINK_ClrBPEx(BPHandle = 0x00000007)
T2AE4 000:642.583 - 0.003ms returns 0x00
T2AE4 000:642.587 JLINK_ReadReg(R0)
T2AE4 000:642.590 - 0.003ms returns 0x00000000
T2AE4 000:642.957 JLINK_WriteMem(0x20200294, 0x16C Bytes, ...)
T2AE4 000:642.962   Data:  79 05 E4 0A 00 22 0C 43 FD 0A 0A 30 02 D5 00 20 ...
T2AE4 000:642.970   CPU_WriteMem(364 bytes @ 0x20200294)
T2AE4 000:644.455 - 1.496ms returns 0x16C
T2AE4 000:644.470 JLINK_WriteMem(0x20200400, 0x294 Bytes, ...)
T2AE4 000:644.474   Data:  45 28 49 D0 12 DC 25 28 34 D0 41 28 B0 D1 43 E0 ...
T2AE4 000:644.480   CPU_WriteMem(660 bytes @ 0x20200400)
T2AE4 000:646.934 - 2.463ms returns 0x294
T2AE4 000:646.945 JLINK_HasError()
T2AE4 000:646.950 JLINK_WriteReg(R0, 0x00000C00)
T2AE4 000:646.954 - 0.004ms returns 0
T2AE4 000:646.958 JLINK_WriteReg(R1, 0x00000400)
T2AE4 000:646.961 - 0.002ms returns 0
T2AE4 000:646.964 JLINK_WriteReg(R2, 0x20200294)
T2AE4 000:646.967 - 0.002ms returns 0
T2AE4 000:646.971 JLINK_WriteReg(R3, 0x00000000)
T2AE4 000:646.974 - 0.002ms returns 0
T2AE4 000:646.977 JLINK_WriteReg(R4, 0x00000000)
T2AE4 000:646.980 - 0.002ms returns 0
T2AE4 000:646.983 JLINK_WriteReg(R5, 0x00000000)
T2AE4 000:646.986 - 0.002ms returns 0
T2AE4 000:646.990 JLINK_WriteReg(R6, 0x00000000)
T2AE4 000:646.993 - 0.002ms returns 0
T2AE4 000:646.996 JLINK_WriteReg(R7, 0x00000000)
T2AE4 000:646.999 - 0.002ms returns 0
T2AE4 000:647.002 JLINK_WriteReg(R8, 0x00000000)
T2AE4 000:647.005 - 0.003ms returns 0
T2AE4 000:647.010 JLINK_WriteReg(R9, 0x20200290)
T2AE4 000:647.013 - 0.003ms returns 0
T2AE4 000:647.016 JLINK_WriteReg(R10, 0x00000000)
T2AE4 000:647.019 - 0.002ms returns 0
T2AE4 000:647.023 JLINK_WriteReg(R11, 0x00000000)
T2AE4 000:647.026 - 0.002ms returns 0
T2AE4 000:647.029 JLINK_WriteReg(R12, 0x00000000)
T2AE4 000:647.032 - 0.002ms returns 0
T2AE4 000:647.036 JLINK_WriteReg(R13 (SP), 0x20208000)
T2AE4 000:647.039 - 0.003ms returns 0
T2AE4 000:647.042 JLINK_WriteReg(R14, 0x20200001)
T2AE4 000:647.045 - 0.002ms returns 0
T2AE4 000:647.049 JLINK_WriteReg(R15 (PC), 0x20200120)
T2AE4 000:647.052 - 0.002ms returns 0
T2AE4 000:647.055 JLINK_WriteReg(XPSR, 0x01000000)
T2AE4 000:647.058 - 0.003ms returns 0
T2AE4 000:647.062 JLINK_WriteReg(MSP, 0x20208000)
T2AE4 000:647.065 - 0.002ms returns 0
T2AE4 000:647.068 JLINK_WriteReg(PSP, 0x20208000)
T2AE4 000:647.071 - 0.002ms returns 0
T2AE4 000:647.074 JLINK_WriteReg(CFBP, 0x00000000)
T2AE4 000:647.077 - 0.002ms returns 0
T2AE4 000:647.081 JLINK_SetBPEx(Addr = 0x20200000, Type = 0xFFFFFFF2)
T2AE4 000:647.085 - 0.004ms returns 0x00000008
T2AE4 000:647.089 JLINK_Go()
T2AE4 000:647.098   CPU_ReadMem(4 bytes @ 0xE0001000)
T2AE4 000:649.187 - 2.098ms 
T2AE4 000:649.197 JLINK_IsHalted()
T2AE4 000:649.394 - 0.197ms returns FALSE
T2AE4 000:649.399 JLINK_HasError()
T2AE4 000:658.868 JLINK_IsHalted()
T2AE4 000:660.728   CPU_ReadMem(2 bytes @ 0x20200000)
T2AE4 000:660.968 - 2.100ms returns TRUE
T2AE4 000:660.975 JLINK_ReadReg(R15 (PC))
T2AE4 000:660.980 - 0.004ms returns 0x20200000
T2AE4 000:660.984 JLINK_ClrBPEx(BPHandle = 0x00000008)
T2AE4 000:660.988 - 0.003ms returns 0x00
T2AE4 000:660.992 JLINK_ReadReg(R0)
T2AE4 000:660.995 - 0.003ms returns 0x00000000
T2AE4 000:661.400 JLINK_WriteMem(0x20200294, 0x16C Bytes, ...)
T2AE4 000:661.406   Data:  83 50 07 22 12 06 4B 68 13 40 11 24 24 02 05 59 ...
T2AE4 000:661.416   CPU_WriteMem(364 bytes @ 0x20200294)
T2AE4 000:662.971 - 1.569ms returns 0x16C
T2AE4 000:662.982 JLINK_WriteMem(0x20200400, 0x294 Bytes, ...)
T2AE4 000:662.986   Data:  18 68 00 2A 11 D0 21 07 08 43 18 60 20 02 1D 49 ...
T2AE4 000:662.993   CPU_WriteMem(660 bytes @ 0x20200400)
T2AE4 000:665.381 - 2.398ms returns 0x294
T2AE4 000:665.392 JLINK_HasError()
T2AE4 000:665.398 JLINK_WriteReg(R0, 0x00001000)
T2AE4 000:665.403 - 0.004ms returns 0
T2AE4 000:665.407 JLINK_WriteReg(R1, 0x00000400)
T2AE4 000:665.411 - 0.003ms returns 0
T2AE4 000:665.415 JLINK_WriteReg(R2, 0x20200294)
T2AE4 000:665.418 - 0.003ms returns 0
T2AE4 000:665.423 JLINK_WriteReg(R3, 0x00000000)
T2AE4 000:665.426 - 0.003ms returns 0
T2AE4 000:665.490 JLINK_WriteReg(R4, 0x00000000)
T2AE4 000:665.518 - 0.030ms returns 0
T2AE4 000:665.523 JLINK_WriteReg(R5, 0x00000000)
T2AE4 000:665.527 - 0.003ms returns 0
T2AE4 000:665.531 JLINK_WriteReg(R6, 0x00000000)
T2AE4 000:665.534 - 0.003ms returns 0
T2AE4 000:665.538 JLINK_WriteReg(R7, 0x00000000)
T2AE4 000:665.542 - 0.003ms returns 0
T2AE4 000:665.546 JLINK_WriteReg(R8, 0x00000000)
T2AE4 000:665.549 - 0.003ms returns 0
T2AE4 000:665.553 JLINK_WriteReg(R9, 0x20200290)
T2AE4 000:665.556 - 0.003ms returns 0
T2AE4 000:665.561 JLINK_WriteReg(R10, 0x00000000)
T2AE4 000:665.566 - 0.005ms returns 0
T2AE4 000:665.572 JLINK_WriteReg(R11, 0x00000000)
T2AE4 000:665.576 - 0.003ms returns 0
T2AE4 000:665.580 JLINK_WriteReg(R12, 0x00000000)
T2AE4 000:665.583 - 0.003ms returns 0
T2AE4 000:665.587 JLINK_WriteReg(R13 (SP), 0x20208000)
T2AE4 000:665.591 - 0.004ms returns 0
T2AE4 000:665.595 JLINK_WriteReg(R14, 0x20200001)
T2AE4 000:665.599 - 0.003ms returns 0
T2AE4 000:665.603 JLINK_WriteReg(R15 (PC), 0x20200120)
T2AE4 000:665.606 - 0.003ms returns 0
T2AE4 000:665.610 JLINK_WriteReg(XPSR, 0x01000000)
T2AE4 000:665.614 - 0.003ms returns 0
T2AE4 000:665.618 JLINK_WriteReg(MSP, 0x20208000)
T2AE4 000:665.621 - 0.003ms returns 0
T2AE4 000:665.625 JLINK_WriteReg(PSP, 0x20208000)
T2AE4 000:665.629 - 0.003ms returns 0
T2AE4 000:665.633 JLINK_WriteReg(CFBP, 0x00000000)
T2AE4 000:665.636 - 0.003ms returns 0
T2AE4 000:665.641 JLINK_SetBPEx(Addr = 0x20200000, Type = 0xFFFFFFF2)
T2AE4 000:665.646 - 0.004ms returns 0x00000009
T2AE4 000:665.650 JLINK_Go()
T2AE4 000:665.661   CPU_ReadMem(4 bytes @ 0xE0001000)
T2AE4 000:667.804 - 2.153ms 
T2AE4 000:667.814 JLINK_IsHalted()
T2AE4 000:668.019 - 0.205ms returns FALSE
T2AE4 000:668.026 JLINK_HasError()
T2AE4 000:674.557 JLINK_IsHalted()
T2AE4 000:676.564   CPU_ReadMem(2 bytes @ 0x20200000)
T2AE4 000:676.805 - 2.248ms returns TRUE
T2AE4 000:676.813 JLINK_ReadReg(R15 (PC))
T2AE4 000:676.817 - 0.004ms returns 0x20200000
T2AE4 000:676.822 JLINK_ClrBPEx(BPHandle = 0x00000009)
T2AE4 000:676.826 - 0.004ms returns 0x00
T2AE4 000:676.831 JLINK_ReadReg(R0)
T2AE4 000:676.834 - 0.003ms returns 0x00000000
T2AE4 000:677.272 JLINK_WriteMem(0x20200294, 0x16C Bytes, ...)
T2AE4 000:677.279   Data:  05 94 04 94 21 25 04 AF 28 46 39 46 01 F0 08 FC ...
T2AE4 000:677.291   CPU_WriteMem(364 bytes @ 0x20200294)
T2AE4 000:678.751 - 1.478ms returns 0x16C
T2AE4 000:678.757 JLINK_WriteMem(0x20200400, 0x294 Bytes, ...)
T2AE4 000:678.762   Data:  31 46 00 D8 29 46 89 18 89 B2 2F 29 11 D3 03 92 ...
T2AE4 000:678.769   CPU_WriteMem(660 bytes @ 0x20200400)
T2AE4 000:681.165 - 2.406ms returns 0x294
T2AE4 000:681.176 JLINK_HasError()
T2AE4 000:681.182 JLINK_WriteReg(R0, 0x00001400)
T2AE4 000:681.187 - 0.004ms returns 0
T2AE4 000:681.192 JLINK_WriteReg(R1, 0x00000400)
T2AE4 000:681.195 - 0.003ms returns 0
T2AE4 000:681.200 JLINK_WriteReg(R2, 0x20200294)
T2AE4 000:681.203 - 0.003ms returns 0
T2AE4 000:681.208 JLINK_WriteReg(R3, 0x00000000)
T2AE4 000:681.211 - 0.003ms returns 0
T2AE4 000:681.215 JLINK_WriteReg(R4, 0x00000000)
T2AE4 000:681.219 - 0.003ms returns 0
T2AE4 000:681.223 JLINK_WriteReg(R5, 0x00000000)
T2AE4 000:681.227 - 0.003ms returns 0
T2AE4 000:681.231 JLINK_WriteReg(R6, 0x00000000)
T2AE4 000:681.234 - 0.003ms returns 0
T2AE4 000:681.239 JLINK_WriteReg(R7, 0x00000000)
T2AE4 000:681.242 - 0.003ms returns 0
T2AE4 000:681.247 JLINK_WriteReg(R8, 0x00000000)
T2AE4 000:681.250 - 0.003ms returns 0
T2AE4 000:681.255 JLINK_WriteReg(R9, 0x20200290)
T2AE4 000:681.258 - 0.003ms returns 0
T2AE4 000:681.263 JLINK_WriteReg(R10, 0x00000000)
T2AE4 000:681.266 - 0.003ms returns 0
T2AE4 000:681.270 JLINK_WriteReg(R11, 0x00000000)
T2AE4 000:681.274 - 0.003ms returns 0
T2AE4 000:681.278 JLINK_WriteReg(R12, 0x00000000)
T2AE4 000:681.282 - 0.003ms returns 0
T2AE4 000:681.286 JLINK_WriteReg(R13 (SP), 0x20208000)
T2AE4 000:681.290 - 0.004ms returns 0
T2AE4 000:681.295 JLINK_WriteReg(R14, 0x20200001)
T2AE4 000:681.298 - 0.003ms returns 0
T2AE4 000:681.303 JLINK_WriteReg(R15 (PC), 0x20200120)
T2AE4 000:681.306 - 0.003ms returns 0
T2AE4 000:681.311 JLINK_WriteReg(XPSR, 0x01000000)
T2AE4 000:681.314 - 0.003ms returns 0
T2AE4 000:681.319 JLINK_WriteReg(MSP, 0x20208000)
T2AE4 000:681.322 - 0.003ms returns 0
T2AE4 000:681.327 JLINK_WriteReg(PSP, 0x20208000)
T2AE4 000:681.330 - 0.003ms returns 0
T2AE4 000:681.335 JLINK_WriteReg(CFBP, 0x00000000)
T2AE4 000:681.338 - 0.003ms returns 0
T2AE4 000:681.343 JLINK_SetBPEx(Addr = 0x20200000, Type = 0xFFFFFFF2)
T2AE4 000:681.347 - 0.004ms returns 0x0000000A
T2AE4 000:681.352 JLINK_Go()
T2AE4 000:681.364   CPU_ReadMem(4 bytes @ 0xE0001000)
T2AE4 000:683.521 - 2.168ms 
T2AE4 000:683.530 JLINK_IsHalted()
T2AE4 000:683.797 - 0.266ms returns FALSE
T2AE4 000:683.803 JLINK_HasError()
T2AE4 000:690.659 JLINK_IsHalted()
T2AE4 000:692.583   CPU_ReadMem(2 bytes @ 0x20200000)
T2AE4 000:692.803 - 2.145ms returns TRUE
T2AE4 000:692.811 JLINK_ReadReg(R15 (PC))
T2AE4 000:692.817 - 0.005ms returns 0x20200000
T2AE4 000:692.847 JLINK_ClrBPEx(BPHandle = 0x0000000A)
T2AE4 000:692.853 - 0.005ms returns 0x00
T2AE4 000:692.857 JLINK_ReadReg(R0)
T2AE4 000:692.860 - 0.003ms returns 0x00000000
T2AE4 000:693.221 JLINK_WriteMem(0x20200294, 0x16C Bytes, ...)
T2AE4 000:693.226   Data:  80 4B 5B 1A 41 E1 00 27 38 46 39 46 03 F0 FC FD ...
T2AE4 000:693.235   CPU_WriteMem(364 bytes @ 0x20200294)
T2AE4 000:694.740 - 1.515ms returns 0x16C
T2AE4 000:694.757 JLINK_WriteMem(0x20200400, 0x294 Bytes, ...)
T2AE4 000:694.761   Data:  21 54 41 1C 24 4B 19 40 43 22 62 54 81 1C 19 40 ...
T2AE4 000:694.769   CPU_WriteMem(660 bytes @ 0x20200400)
T2AE4 000:697.116 - 2.358ms returns 0x294
T2AE4 000:697.123 JLINK_HasError()
T2AE4 000:697.127 JLINK_WriteReg(R0, 0x00001800)
T2AE4 000:697.131 - 0.003ms returns 0
T2AE4 000:697.134 JLINK_WriteReg(R1, 0x00000400)
T2AE4 000:697.137 - 0.003ms returns 0
T2AE4 000:697.140 JLINK_WriteReg(R2, 0x20200294)
T2AE4 000:697.143 - 0.002ms returns 0
T2AE4 000:697.146 JLINK_WriteReg(R3, 0x00000000)
T2AE4 000:697.149 - 0.002ms returns 0
T2AE4 000:697.153 JLINK_WriteReg(R4, 0x00000000)
T2AE4 000:697.155 - 0.002ms returns 0
T2AE4 000:697.159 JLINK_WriteReg(R5, 0x00000000)
T2AE4 000:697.161 - 0.002ms returns 0
T2AE4 000:697.165 JLINK_WriteReg(R6, 0x00000000)
T2AE4 000:697.167 - 0.002ms returns 0
T2AE4 000:697.171 JLINK_WriteReg(R7, 0x00000000)
T2AE4 000:697.173 - 0.002ms returns 0
T2AE4 000:697.177 JLINK_WriteReg(R8, 0x00000000)
T2AE4 000:697.179 - 0.002ms returns 0
T2AE4 000:697.183 JLINK_WriteReg(R9, 0x20200290)
T2AE4 000:697.185 - 0.002ms returns 0
T2AE4 000:697.189 JLINK_WriteReg(R10, 0x00000000)
T2AE4 000:697.191 - 0.002ms returns 0
T2AE4 000:697.194 JLINK_WriteReg(R11, 0x00000000)
T2AE4 000:697.197 - 0.002ms returns 0
T2AE4 000:697.200 JLINK_WriteReg(R12, 0x00000000)
T2AE4 000:697.203 - 0.002ms returns 0
T2AE4 000:697.207 JLINK_WriteReg(R13 (SP), 0x20208000)
T2AE4 000:697.210 - 0.003ms returns 0
T2AE4 000:697.213 JLINK_WriteReg(R14, 0x20200001)
T2AE4 000:697.216 - 0.002ms returns 0
T2AE4 000:697.219 JLINK_WriteReg(R15 (PC), 0x20200120)
T2AE4 000:697.222 - 0.002ms returns 0
T2AE4 000:697.225 JLINK_WriteReg(XPSR, 0x01000000)
T2AE4 000:697.228 - 0.002ms returns 0
T2AE4 000:697.231 JLINK_WriteReg(MSP, 0x20208000)
T2AE4 000:697.234 - 0.002ms returns 0
T2AE4 000:697.237 JLINK_WriteReg(PSP, 0x20208000)
T2AE4 000:697.240 - 0.002ms returns 0
T2AE4 000:697.243 JLINK_WriteReg(CFBP, 0x00000000)
T2AE4 000:697.245 - 0.002ms returns 0
T2AE4 000:697.249 JLINK_SetBPEx(Addr = 0x20200000, Type = 0xFFFFFFF2)
T2AE4 000:697.253 - 0.003ms returns 0x0000000B
T2AE4 000:697.256 JLINK_Go()
T2AE4 000:697.264   CPU_ReadMem(4 bytes @ 0xE0001000)
T2AE4 000:699.124 - 1.867ms 
T2AE4 000:699.133 JLINK_IsHalted()
T2AE4 000:699.311 - 0.178ms returns FALSE
T2AE4 000:699.316 JLINK_HasError()
T2AE4 000:702.219 JLINK_IsHalted()
T2AE4 000:702.429 - 0.210ms returns FALSE
T2AE4 000:702.434 JLINK_HasError()
T2AE4 000:706.274 JLINK_IsHalted()
T2AE4 000:708.062   CPU_ReadMem(2 bytes @ 0x20200000)
T2AE4 000:708.267 - 1.993ms returns TRUE
T2AE4 000:708.272 JLINK_ReadReg(R15 (PC))
T2AE4 000:708.277 - 0.004ms returns 0x20200000
T2AE4 000:708.280 JLINK_ClrBPEx(BPHandle = 0x0000000B)
T2AE4 000:708.284 - 0.003ms returns 0x00
T2AE4 000:708.288 JLINK_ReadReg(R0)
T2AE4 000:708.291 - 0.003ms returns 0x00000000
T2AE4 000:708.660 JLINK_WriteMem(0x20200294, 0x16C Bytes, ...)
T2AE4 000:708.664   Data:  B5 FB 29 46 FE F7 59 FB 1E 21 1E 91 65 5E F1 6A ...
T2AE4 000:708.672   CPU_WriteMem(364 bytes @ 0x20200294)
T2AE4 000:710.170 - 1.510ms returns 0x16C
T2AE4 000:710.177 JLINK_WriteMem(0x20200400, 0x294 Bytes, ...)
T2AE4 000:710.183   Data:  F0 05 20 20 FF 03 00 00 CE 70 00 00 04 00 20 20 ...
T2AE4 000:710.192   CPU_WriteMem(660 bytes @ 0x20200400)
T2AE4 000:712.689 - 2.510ms returns 0x294
T2AE4 000:712.709 JLINK_HasError()
T2AE4 000:712.715 JLINK_WriteReg(R0, 0x00001C00)
T2AE4 000:712.719 - 0.004ms returns 0
T2AE4 000:712.723 JLINK_WriteReg(R1, 0x00000400)
T2AE4 000:712.726 - 0.003ms returns 0
T2AE4 000:712.730 JLINK_WriteReg(R2, 0x20200294)
T2AE4 000:712.733 - 0.003ms returns 0
T2AE4 000:712.737 JLINK_WriteReg(R3, 0x00000000)
T2AE4 000:712.741 - 0.003ms returns 0
T2AE4 000:712.745 JLINK_WriteReg(R4, 0x00000000)
T2AE4 000:712.748 - 0.003ms returns 0
T2AE4 000:712.752 JLINK_WriteReg(R5, 0x00000000)
T2AE4 000:712.755 - 0.003ms returns 0
T2AE4 000:712.759 JLINK_WriteReg(R6, 0x00000000)
T2AE4 000:712.762 - 0.003ms returns 0
T2AE4 000:712.766 JLINK_WriteReg(R7, 0x00000000)
T2AE4 000:712.769 - 0.003ms returns 0
T2AE4 000:712.773 JLINK_WriteReg(R8, 0x00000000)
T2AE4 000:712.776 - 0.003ms returns 0
T2AE4 000:712.780 JLINK_WriteReg(R9, 0x20200290)
T2AE4 000:712.783 - 0.003ms returns 0
T2AE4 000:712.787 JLINK_WriteReg(R10, 0x00000000)
T2AE4 000:712.790 - 0.003ms returns 0
T2AE4 000:712.794 JLINK_WriteReg(R11, 0x00000000)
T2AE4 000:712.797 - 0.003ms returns 0
T2AE4 000:712.801 JLINK_WriteReg(R12, 0x00000000)
T2AE4 000:712.805 - 0.003ms returns 0
T2AE4 000:712.809 JLINK_WriteReg(R13 (SP), 0x20208000)
T2AE4 000:712.812 - 0.004ms returns 0
T2AE4 000:712.816 JLINK_WriteReg(R14, 0x20200001)
T2AE4 000:712.820 - 0.003ms returns 0
T2AE4 000:712.824 JLINK_WriteReg(R15 (PC), 0x20200120)
T2AE4 000:712.827 - 0.003ms returns 0
T2AE4 000:712.831 JLINK_WriteReg(XPSR, 0x01000000)
T2AE4 000:712.834 - 0.003ms returns 0
T2AE4 000:712.838 JLINK_WriteReg(MSP, 0x20208000)
T2AE4 000:712.841 - 0.003ms returns 0
T2AE4 000:712.845 JLINK_WriteReg(PSP, 0x20208000)
T2AE4 000:712.848 - 0.003ms returns 0
T2AE4 000:712.852 JLINK_WriteReg(CFBP, 0x00000000)
T2AE4 000:712.855 - 0.003ms returns 0
T2AE4 000:712.860 JLINK_SetBPEx(Addr = 0x20200000, Type = 0xFFFFFFF2)
T2AE4 000:712.864 - 0.004ms returns 0x0000000C
T2AE4 000:712.868 JLINK_Go()
T2AE4 000:712.877   CPU_ReadMem(4 bytes @ 0xE0001000)
T2AE4 000:714.917 - 2.049ms 
T2AE4 000:714.926 JLINK_IsHalted()
T2AE4 000:715.190 - 0.264ms returns FALSE
T2AE4 000:715.195 JLINK_HasError()
T2AE4 000:726.303 JLINK_IsHalted()
T2AE4 000:728.266   CPU_ReadMem(2 bytes @ 0x20200000)
T2AE4 000:728.520 - 2.216ms returns TRUE
T2AE4 000:728.527 JLINK_ReadReg(R15 (PC))
T2AE4 000:728.531 - 0.004ms returns 0x20200000
T2AE4 000:728.536 JLINK_ClrBPEx(BPHandle = 0x0000000C)
T2AE4 000:728.539 - 0.003ms returns 0x00
T2AE4 000:728.543 JLINK_ReadReg(R0)
T2AE4 000:728.547 - 0.003ms returns 0x00000000
T2AE4 000:728.959 JLINK_WriteMem(0x20200294, 0x16C Bytes, ...)
T2AE4 000:728.966   Data:  C0 0A 00 D0 49 1C 1C 91 30 46 FE F7 7F F8 E1 4D ...
T2AE4 000:728.976   CPU_WriteMem(364 bytes @ 0x20200294)
T2AE4 000:730.479 - 1.519ms returns 0x16C
T2AE4 000:730.493 JLINK_WriteMem(0x20200400, 0x294 Bytes, ...)
T2AE4 000:730.497   Data:  1E 98 05 A9 0D C1 88 4E 2B AD 8D 4A 28 46 27 99 ...
T2AE4 000:730.506   CPU_WriteMem(660 bytes @ 0x20200400)
T2AE4 000:732.805 - 2.311ms returns 0x294
T2AE4 000:732.816 JLINK_HasError()
T2AE4 000:732.821 JLINK_WriteReg(R0, 0x00002000)
T2AE4 000:732.825 - 0.004ms returns 0
T2AE4 000:732.829 JLINK_WriteReg(R1, 0x00000400)
T2AE4 000:732.833 - 0.003ms returns 0
T2AE4 000:732.837 JLINK_WriteReg(R2, 0x20200294)
T2AE4 000:732.840 - 0.003ms returns 0
T2AE4 000:732.844 JLINK_WriteReg(R3, 0x00000000)
T2AE4 000:732.847 - 0.003ms returns 0
T2AE4 000:732.851 JLINK_WriteReg(R4, 0x00000000)
T2AE4 000:732.854 - 0.003ms returns 0
T2AE4 000:732.857 JLINK_WriteReg(R5, 0x00000000)
T2AE4 000:732.860 - 0.003ms returns 0
T2AE4 000:732.864 JLINK_WriteReg(R6, 0x00000000)
T2AE4 000:732.867 - 0.003ms returns 0
T2AE4 000:732.871 JLINK_WriteReg(R7, 0x00000000)
T2AE4 000:732.874 - 0.003ms returns 0
T2AE4 000:732.878 JLINK_WriteReg(R8, 0x00000000)
T2AE4 000:732.881 - 0.003ms returns 0
T2AE4 000:732.888 JLINK_WriteReg(R9, 0x20200290)
T2AE4 000:732.891 - 0.003ms returns 0
T2AE4 000:732.895 JLINK_WriteReg(R10, 0x00000000)
T2AE4 000:732.898 - 0.003ms returns 0
T2AE4 000:732.902 JLINK_WriteReg(R11, 0x00000000)
T2AE4 000:732.905 - 0.003ms returns 0
T2AE4 000:732.909 JLINK_WriteReg(R12, 0x00000000)
T2AE4 000:732.912 - 0.003ms returns 0
T2AE4 000:732.916 JLINK_WriteReg(R13 (SP), 0x20208000)
T2AE4 000:732.920 - 0.003ms returns 0
T2AE4 000:732.924 JLINK_WriteReg(R14, 0x20200001)
T2AE4 000:732.927 - 0.003ms returns 0
T2AE4 000:732.931 JLINK_WriteReg(R15 (PC), 0x20200120)
T2AE4 000:732.934 - 0.003ms returns 0
T2AE4 000:732.938 JLINK_WriteReg(XPSR, 0x01000000)
T2AE4 000:732.941 - 0.003ms returns 0
T2AE4 000:732.945 JLINK_WriteReg(MSP, 0x20208000)
T2AE4 000:732.948 - 0.003ms returns 0
T2AE4 000:732.952 JLINK_WriteReg(PSP, 0x20208000)
T2AE4 000:732.955 - 0.003ms returns 0
T2AE4 000:732.959 JLINK_WriteReg(CFBP, 0x00000000)
T2AE4 000:732.962 - 0.003ms returns 0
T2AE4 000:732.968 JLINK_SetBPEx(Addr = 0x20200000, Type = 0xFFFFFFF2)
T2AE4 000:732.972 - 0.004ms returns 0x0000000D
T2AE4 000:732.976 JLINK_Go()
T2AE4 000:732.985   CPU_ReadMem(4 bytes @ 0xE0001000)
T2AE4 000:735.117 - 2.141ms 
T2AE4 000:735.125 JLINK_IsHalted()
T2AE4 000:735.332 - 0.207ms returns FALSE
T2AE4 000:735.337 JLINK_HasError()
T2AE4 000:754.462 JLINK_IsHalted()
T2AE4 000:756.408   CPU_ReadMem(2 bytes @ 0x20200000)
T2AE4 000:756.668 - 2.207ms returns TRUE
T2AE4 000:756.674 JLINK_ReadReg(R15 (PC))
T2AE4 000:756.678 - 0.003ms returns 0x20200000
T2AE4 000:756.682 JLINK_ClrBPEx(BPHandle = 0x0000000D)
T2AE4 000:756.685 - 0.003ms returns 0x00
T2AE4 000:756.690 JLINK_ReadReg(R0)
T2AE4 000:756.694 - 0.003ms returns 0x00000000
T2AE4 000:757.111 JLINK_WriteMem(0x20200294, 0x16C Bytes, ...)
